<Qucs Dataset 0.0.22>
<indep time 59>
0.000000000000e+00
1.000000000000e-07
2.000000000000e-07
4.000000000000e-07
8.000000000000e-07
1.600000000000e-06
3.200000000000e-06
6.400000000000e-06
1.280000000000e-05
2.560000000000e-05
4.560000000000e-05
6.560000000000e-05
8.560000000000e-05
1.056000000000e-04
1.256000000000e-04
1.456000000000e-04
1.656000000000e-04
1.856000000000e-04
2.056000000000e-04
2.256000000000e-04
2.456000000000e-04
2.656000000000e-04
2.856000000000e-04
3.056000000000e-04
3.256000000000e-04
3.456000000000e-04
3.656000000000e-04
3.856000000000e-04
4.056000000000e-04
4.256000000000e-04
4.456000000000e-04
4.656000000000e-04
4.856000000000e-04
5.056000000000e-04
5.256000000000e-04
5.456000000000e-04
5.656000000000e-04
5.856000000000e-04
6.056000000000e-04
6.256000000000e-04
6.456000000000e-04
6.656000000000e-04
6.856000000000e-04
7.056000000000e-04
7.256000000000e-04
7.456000000000e-04
7.656000000000e-04
7.856000000000e-04
8.056000000000e-04
8.256000000000e-04
8.456000000000e-04
8.656000000000e-04
8.856000000000e-04
9.056000000000e-04
9.256000000000e-04
9.456000000000e-04
9.656000000000e-04
9.856000000000e-04
1.000000000000e-03
</indep>
<dep tran.v(vdd) time>
3.300000000000e+00
3.300000000000e+00
3.300000000000e+00
3.300000000000e+00
3.300000000000e+00
3.300000000000e+00
3.300000000000e+00
3.300000000000e+00
3.300000000000e+00
3.300000000000e+00
3.300000000000e+00
3.300000000000e+00
3.300000000000e+00
3.300000000000e+00
3.300000000000e+00
3.300000000000e+00
3.300000000000e+00
3.300000000000e+00
3.300000000000e+00
3.300000000000e+00
3.300000000000e+00
3.300000000000e+00
3.300000000000e+00
3.300000000000e+00
3.300000000000e+00
3.300000000000e+00
3.300000000000e+00
3.300000000000e+00
3.300000000000e+00
3.300000000000e+00
3.300000000000e+00
3.300000000000e+00
3.300000000000e+00
3.300000000000e+00
3.300000000000e+00
3.300000000000e+00
3.300000000000e+00
3.300000000000e+00
3.300000000000e+00
3.300000000000e+00
3.300000000000e+00
3.300000000000e+00
3.300000000000e+00
3.300000000000e+00
3.300000000000e+00
3.300000000000e+00
3.300000000000e+00
3.300000000000e+00
3.300000000000e+00
3.300000000000e+00
3.300000000000e+00
3.300000000000e+00
3.300000000000e+00
3.300000000000e+00
3.300000000000e+00
3.300000000000e+00
3.300000000000e+00
3.300000000000e+00
3.300000000000e+00
</dep>
<dep tran.v(vbutton) time>
1.200000000000e+01
1.200000000000e+01
1.200000000000e+01
1.200000000000e+01
1.200000000000e+01
1.200000000000e+01
1.200000000000e+01
1.200000000000e+01
1.200000000000e+01
1.200000000000e+01
1.200000000000e+01
1.200000000000e+01
1.200000000000e+01
1.200000000000e+01
1.200000000000e+01
1.200000000000e+01
1.200000000000e+01
1.200000000000e+01
1.200000000000e+01
1.200000000000e+01
1.200000000000e+01
1.200000000000e+01
1.200000000000e+01
1.200000000000e+01
1.200000000000e+01
1.200000000000e+01
1.200000000000e+01
1.200000000000e+01
1.200000000000e+01
1.200000000000e+01
1.200000000000e+01
1.200000000000e+01
1.200000000000e+01
1.200000000000e+01
1.200000000000e+01
1.200000000000e+01
1.200000000000e+01
1.200000000000e+01
1.200000000000e+01
1.200000000000e+01
1.200000000000e+01
1.200000000000e+01
1.200000000000e+01
1.200000000000e+01
1.200000000000e+01
1.200000000000e+01
1.200000000000e+01
1.200000000000e+01
1.200000000000e+01
1.200000000000e+01
1.200000000000e+01
1.200000000000e+01
1.200000000000e+01
1.200000000000e+01
1.200000000000e+01
1.200000000000e+01
1.200000000000e+01
1.200000000000e+01
1.200000000000e+01
</dep>
<dep tran.v(mcu_in) time>
3.834202218045e+00
3.834178755638e+00
3.834168883141e+00
3.834160583550e+00
3.834162262396e+00
3.834161353547e+00
3.834162030890e+00
3.834161441388e+00
3.834161991692e+00
3.834161459856e+00
3.834161981876e+00
3.834161467350e+00
3.834161974466e+00
3.834161474646e+00
3.834161967275e+00
3.834161481733e+00
3.834161960289e+00
3.834161488617e+00
3.834161953502e+00
3.834161495305e+00
3.834161946910e+00
3.834161501802e+00
3.834161940505e+00
3.834161508113e+00
3.834161934284e+00
3.834161514244e+00
3.834161928241e+00
3.834161520200e+00
3.834161922370e+00
3.834161525985e+00
3.834161916667e+00
3.834161531606e+00
3.834161911126e+00
3.834161537066e+00
3.834161905744e+00
3.834161542370e+00
3.834161900516e+00
3.834161547522e+00
3.834161895437e+00
3.834161552527e+00
3.834161890504e+00
3.834161557389e+00
3.834161885711e+00
3.834161562113e+00
3.834161881055e+00
3.834161566701e+00
3.834161876532e+00
3.834161571159e+00
3.834161872139e+00
3.834161575489e+00
3.834161867870e+00
3.834161579695e+00
3.834161863724e+00
3.834161583781e+00
3.834161859696e+00
3.834161587751e+00
3.834161855784e+00
3.834161591607e+00
3.834161851256e+00
</dep>
