<Qucs Dataset 0.0.22>
<indep time 59>
0.000000000000e+00
1.000000000000e-07
2.000000000000e-07
4.000000000000e-07
8.000000000000e-07
1.600000000000e-06
3.200000000000e-06
6.400000000000e-06
1.280000000000e-05
2.560000000000e-05
4.560000000000e-05
6.560000000000e-05
8.560000000000e-05
1.056000000000e-04
1.256000000000e-04
1.456000000000e-04
1.656000000000e-04
1.856000000000e-04
2.056000000000e-04
2.256000000000e-04
2.456000000000e-04
2.656000000000e-04
2.856000000000e-04
3.056000000000e-04
3.256000000000e-04
3.456000000000e-04
3.656000000000e-04
3.856000000000e-04
4.056000000000e-04
4.256000000000e-04
4.456000000000e-04
4.656000000000e-04
4.856000000000e-04
5.056000000000e-04
5.256000000000e-04
5.456000000000e-04
5.656000000000e-04
5.856000000000e-04
6.056000000000e-04
6.256000000000e-04
6.456000000000e-04
6.656000000000e-04
6.856000000000e-04
7.056000000000e-04
7.256000000000e-04
7.456000000000e-04
7.656000000000e-04
7.856000000000e-04
8.056000000000e-04
8.256000000000e-04
8.456000000000e-04
8.656000000000e-04
8.856000000000e-04
9.056000000000e-04
9.256000000000e-04
9.456000000000e-04
9.656000000000e-04
9.856000000000e-04
1.000000000000e-03
</indep>
<dep tran.v(vdd) time>
3.300000000000e+00
3.300000000000e+00
3.300000000000e+00
3.300000000000e+00
3.300000000000e+00
3.300000000000e+00
3.300000000000e+00
3.300000000000e+00
3.300000000000e+00
3.300000000000e+00
3.300000000000e+00
3.300000000000e+00
3.300000000000e+00
3.300000000000e+00
3.300000000000e+00
3.300000000000e+00
3.300000000000e+00
3.300000000000e+00
3.300000000000e+00
3.300000000000e+00
3.300000000000e+00
3.300000000000e+00
3.300000000000e+00
3.300000000000e+00
3.300000000000e+00
3.300000000000e+00
3.300000000000e+00
3.300000000000e+00
3.300000000000e+00
3.300000000000e+00
3.300000000000e+00
3.300000000000e+00
3.300000000000e+00
3.300000000000e+00
3.300000000000e+00
3.300000000000e+00
3.300000000000e+00
3.300000000000e+00
3.300000000000e+00
3.300000000000e+00
3.300000000000e+00
3.300000000000e+00
3.300000000000e+00
3.300000000000e+00
3.300000000000e+00
3.300000000000e+00
3.300000000000e+00
3.300000000000e+00
3.300000000000e+00
3.300000000000e+00
3.300000000000e+00
3.300000000000e+00
3.300000000000e+00
3.300000000000e+00
3.300000000000e+00
3.300000000000e+00
3.300000000000e+00
3.300000000000e+00
3.300000000000e+00
</dep>
<dep tran.v(vbutton) time>
1.200000000000e+01
1.200000000000e+01
1.200000000000e+01
1.200000000000e+01
1.200000000000e+01
1.200000000000e+01
1.200000000000e+01
1.200000000000e+01
1.200000000000e+01
1.200000000000e+01
1.200000000000e+01
1.200000000000e+01
1.200000000000e+01
1.200000000000e+01
1.200000000000e+01
1.200000000000e+01
1.200000000000e+01
1.200000000000e+01
1.200000000000e+01
1.200000000000e+01
1.200000000000e+01
1.200000000000e+01
1.200000000000e+01
1.200000000000e+01
1.200000000000e+01
1.200000000000e+01
1.200000000000e+01
1.200000000000e+01
1.200000000000e+01
1.200000000000e+01
1.200000000000e+01
1.200000000000e+01
1.200000000000e+01
1.200000000000e+01
1.200000000000e+01
1.200000000000e+01
1.200000000000e+01
1.200000000000e+01
1.200000000000e+01
1.200000000000e+01
1.200000000000e+01
1.200000000000e+01
1.200000000000e+01
1.200000000000e+01
1.200000000000e+01
1.200000000000e+01
1.200000000000e+01
1.200000000000e+01
1.200000000000e+01
1.200000000000e+01
1.200000000000e+01
1.200000000000e+01
1.200000000000e+01
1.200000000000e+01
1.200000000000e+01
1.200000000000e+01
1.200000000000e+01
1.200000000000e+01
1.200000000000e+01
</dep>
<dep tran.v(mcu_in) time>
3.279732276596e+00
3.279732276596e+00
3.279732276596e+00
3.279732276596e+00
3.279732276596e+00
3.279732276596e+00
3.279732276596e+00
3.279732276596e+00
3.279732276596e+00
3.279732276595e+00
3.279732276596e+00
3.279732276596e+00
3.279732276596e+00
3.279732276596e+00
3.279732276596e+00
3.279732276595e+00
3.279732276596e+00
3.279732276595e+00
3.279732276597e+00
3.279732276595e+00
3.279732276596e+00
3.279732276596e+00
3.279732276596e+00
3.279732276596e+00
3.279732276597e+00
3.279732276596e+00
3.279732276596e+00
3.279732276596e+00
3.279732276596e+00
3.279732276596e+00
3.279732276596e+00
3.279732276596e+00
3.279732276596e+00
3.279732276595e+00
3.279732276596e+00
3.279732276596e+00
3.279732276595e+00
3.279732276596e+00
3.279732276596e+00
3.279732276595e+00
3.279732276596e+00
3.279732276595e+00
3.279732276596e+00
3.279732276596e+00
3.279732276596e+00
3.279732276596e+00
3.279732276596e+00
3.279732276595e+00
3.279732276596e+00
3.279732276596e+00
3.279732276596e+00
3.279732276596e+00
3.279732276596e+00
3.279732276595e+00
3.279732276596e+00
3.279732276596e+00
3.279732276596e+00
3.279732276596e+00
3.279732276596e+00
</dep>
