<Qucs Dataset 0.0.19>
<indep time 11>
  +0.00000000000000000000e+000
  +1.00000000000000004792e-004
  +2.00000000000000009584e-004
  +3.00000000000000027929e-004
  +4.00000000000000019169e-004
  +5.00000000000000010408e-004
  +6.00000000000000055858e-004
  +6.99999999999999992888e-004
  +8.00000000000000038337e-004
  +8.99999999999999975367e-004
  +1.00000000000000002082e-003
</indep>
<dep V1.It time>
  -8.95357993111187654145e-003
  -8.95357993111189215396e-003
  -8.95357993111188521507e-003
  -8.95357993111188694979e-003
  -8.95357993111188694979e-003
  -8.95357993111188521507e-003
  -8.95357993111188694979e-003
  -8.95357993111188694979e-003
  -8.95357993111188521507e-003
  -8.95357993111188694979e-003
  -8.95357993111188868451e-003
</dep>
<dep V2.It time>
  -1.24741638896742523731e-010
  -1.24738312553114720020e-010
  -1.24738375443435835203e-010
  -1.24738364262266750479e-010
  -1.24738350450108279645e-010
  -1.24738346308524140433e-010
  -1.24738338801333167464e-010
  -1.24738322315243883381e-010
  -1.24738325424955777200e-010
  -1.24738308671490286276e-010
  -1.24738309190667716203e-010
</dep>
<dep mcu_in.Vt time>
  +3.04642006888812355569e+000
  +3.04642006888810712439e+000
  +3.04642006888811600618e+000
  +3.04642006888811422982e+000
  +3.04642006888811334164e+000
  +3.04642006888811467391e+000
  +3.04642006888811334164e+000
  +3.04642006888811334164e+000
  +3.04642006888811378573e+000
  +3.04642006888811334164e+000
  +3.04642006888811200938e+000
</dep>
<dep VDD.Vt time>
  +3.29999999999999982236e+000
  +3.29999999999999982236e+000
  +3.29999999999999982236e+000
  +3.29999999999999982236e+000
  +3.29999999999999982236e+000
  +3.29999999999999982236e+000
  +3.29999999999999982236e+000
  +3.29999999999999982236e+000
  +3.29999999999999982236e+000
  +3.29999999999999982236e+000
  +3.29999999999999982236e+000
</dep>
<dep vbutton.Vt time>
  +1.20000000000000000000e+001
  +1.20000000000000000000e+001
  +1.20000000000000000000e+001
  +1.20000000000000000000e+001
  +1.20000000000000000000e+001
  +1.20000000000000000000e+001
  +1.20000000000000000000e+001
  +1.20000000000000000000e+001
  +1.20000000000000000000e+001
  +1.20000000000000000000e+001
  +1.20000000000000000000e+001
</dep>
