<Qucs Dataset 0.0.19>
<indep time 11>
  +0.00000000000000000000e+000
  +2.00000000000000009584e-004
  +4.00000000000000019169e-004
  +6.00000000000000055858e-004
  +8.00000000000000038337e-004
  +1.00000000000000002082e-003
  +1.20000000000000011172e-003
  +1.39999999999999998578e-003
  +1.60000000000000007667e-003
  +1.79999999999999995073e-003
  +2.00000000000000004163e-003
</indep>
<dep V1.It time>
  +0.00000000000000000000e+000
  +0.00000000000000000000e+000
  +0.00000000000000000000e+000
  +0.00000000000000000000e+000
  +0.00000000000000000000e+000
  +0.00000000000000000000e+000
  +0.00000000000000000000e+000
  +0.00000000000000000000e+000
  +0.00000000000000000000e+000
  +0.00000000000000000000e+000
  +0.00000000000000000000e+000
</dep>
<dep _net1.Vt time>
  +0.00000000000000000000e+000
  +1.20000000000000000000e+001
  +1.20000000000000000000e+001
  +0.00000000000000000000e+000
  +0.00000000000000000000e+000
  +0.00000000000000000000e+000
  +1.20000000000000000000e+001
  +1.20000000000000000000e+001
  +0.00000000000000000000e+000
  +0.00000000000000000000e+000
  +0.00000000000000000000e+000
</dep>
<dep out.Vt time>
  +0.00000000000000000000e+000
  +3.26086157896599848627e+000
  +3.26086157896599848627e+000
  +0.00000000000000000000e+000
  +0.00000000000000000000e+000
  +0.00000000000000000000e+000
  +3.26086157896599848627e+000
  +3.26086157896599848627e+000
  +0.00000000000000000000e+000
  +0.00000000000000000000e+000
  +0.00000000000000000000e+000
</dep>
<dep _net0.Vt time>
  +0.00000000000000000000e+000
  +1.19999706105948735768e+001
  +1.19999706105948735768e+001
  +0.00000000000000000000e+000
  +0.00000000000000000000e+000
  +0.00000000000000000000e+000
  +1.19999706105948735768e+001
  +1.19999706105948735768e+001
  +0.00000000000000000000e+000
  +0.00000000000000000000e+000
  +0.00000000000000000000e+000
</dep>
