<Qucs Dataset 0.0.22>
<indep time 109>
0.000000000000e+00
9.900990000000e-06
1.980198000000e-05
3.960396000000e-05
7.920792000000e-05
1.584158400000e-04
3.168316800000e-04
6.336633600000e-04
1.267326720000e-03
2.257425720000e-03
3.247524720000e-03
4.237623720000e-03
5.227722720000e-03
6.217821720000e-03
7.207920720000e-03
8.198019720000e-03
9.188118720000e-03
1.017821772000e-02
1.116831672000e-02
1.215841572000e-02
1.314851472000e-02
1.413861372000e-02
1.512871272000e-02
1.611881172000e-02
1.710891072000e-02
1.809900972000e-02
1.908910872000e-02
2.007920772000e-02
2.106930672000e-02
2.205940572000e-02
2.304950472000e-02
2.403960372000e-02
2.502970272000e-02
2.601980172000e-02
2.700990072000e-02
2.799999972000e-02
2.899009872000e-02
2.998019772000e-02
3.097029672000e-02
3.196039572000e-02
3.295049472000e-02
3.394059372000e-02
3.493069272000e-02
3.592079172000e-02
3.691089072000e-02
3.790098972000e-02
3.889108872000e-02
3.988118772000e-02
4.087128672000e-02
4.186138572000e-02
4.285148472000e-02
4.384158372000e-02
4.483168272000e-02
4.582178172000e-02
4.681188072000e-02
4.780197972000e-02
4.879207872000e-02
4.978217772000e-02
5.077227672000e-02
5.176237572000e-02
5.275247472000e-02
5.374257372000e-02
5.473267272000e-02
5.572277172000e-02
5.671287072000e-02
5.770296972000e-02
5.869306872000e-02
5.968316772000e-02
6.067326672000e-02
6.166336572000e-02
6.265346472000e-02
6.364356372000e-02
6.463366272000e-02
6.562376172000e-02
6.661386072000e-02
6.760395972000e-02
6.859405872000e-02
6.958415772000e-02
7.057425672000e-02
7.156435572000e-02
7.255445472000e-02
7.354455372000e-02
7.453465272000e-02
7.552475172000e-02
7.651485072000e-02
7.750494972000e-02
7.849504872000e-02
7.948514772000e-02
8.047524672000e-02
8.146534572000e-02
8.245544472000e-02
8.344554372000e-02
8.443564272000e-02
8.542574172000e-02
8.641584072000e-02
8.740593972000e-02
8.839603872000e-02
8.938613772000e-02
9.037623672000e-02
9.136633572000e-02
9.235643472000e-02
9.334653372000e-02
9.433663272000e-02
9.532673172000e-02
9.631683072000e-02
9.730692972000e-02
9.829702872000e-02
9.928712772000e-02
1.000000000000e-01
</indep>
<dep tran.i(pr1) time>
1.650000000000e-04
1.647020045192e-04
1.644096651974e-04
1.638360986813e-04
1.627531954188e-04
1.608218610523e-04
1.577445677111e-04
1.538356039128e-04
1.509123090468e-04
1.516794368139e-04
1.547954767945e-04
1.589089017474e-04
1.636072157233e-04
1.684392055800e-04
1.729411219524e-04
1.766808988110e-04
1.792996156216e-04
1.805459442250e-04
1.803002697504e-04
1.785861705065e-04
1.755681550821e-04
1.715358738349e-04
1.668763200504e-04
1.620366887324e-04
1.574814576070e-04
1.536478094380e-04
1.509036739430e-04
1.495124161864e-04
1.496075604384e-04
1.511799753453e-04
1.540787502998e-04
1.580256789035e-04
1.626419594868e-04
1.674845501388e-04
1.720886891148e-04
1.760124997798e-04
1.788793991802e-04
1.804142401351e-04
1.804697181518e-04
1.790405087950e-04
1.762637786934e-04
1.724060211395e-04
1.678374797195e-04
1.629966146366e-04
1.583480220260e-04
1.543378449061e-04
1.513509551458e-04
1.496740158550e-04
1.494679692412e-04
1.507525903775e-04
1.534045893136e-04
1.571694436791e-04
1.616858261580e-04
1.665202824381e-04
1.712088314613e-04
1.753014954410e-04
1.784054859324e-04
1.802229012254e-04
1.805793170992e-04
1.794405269739e-04
1.769158248460e-04
1.732475159296e-04
1.687876617089e-04
1.639642912652e-04
1.592403217068e-04
1.550691302633e-04
1.518510419572e-04
1.498949088974e-04
1.493884685737e-04
1.503803259799e-04
1.527752888085e-04
1.563435034165e-04
1.607425147495e-04
1.655501330482e-04
1.703049529971e-04
1.745506365380e-04
1.778797093600e-04
1.799726677505e-04
1.806286425748e-04
1.797846774476e-04
1.775217708949e-04
1.740571026191e-04
1.697231899417e-04
1.649359748576e-04
1.601549045087e-04
1.558388363032e-04
1.524019996346e-04
1.501742407197e-04
1.493693660093e-04
1.500646223741e-04
1.521932834306e-04
1.555510535245e-04
1.598156747574e-04
1.645778552962e-04
1.693805506592e-04
1.737628280037e-04
1.773041035947e-04
1.796645078168e-04
1.806175037475e-04
1.800716287621e-04
1.780792725479e-04
1.748316490680e-04
1.706404450337e-04
1.659079061514e-04
1.610882320812e-04
1.566439851765e-04
1.530016966255e-04
1.505109306392e-04
1.496178952891e-04
</dep>
<dep tran.i(pr2) time>
0.000000000000e+00
-1.555241364499e-04
-3.110467681842e-04
-6.220814987305e-04
-1.244066699153e-03
-2.487363101286e-03
-4.968566687808e-03
-9.887948737432e-03
-1.938533686933e-02
-3.256100996010e-02
-4.261167974570e-02
-4.857274542482e-02
-4.987210097333e-02
-4.638504232376e-02
-3.844623568634e-02
-2.681759836682e-02
-1.261517468024e-02
2.797975043995e-03
1.794259251843e-02
3.136519151150e-02
4.177755441973e-02
4.818036738453e-02
4.995912822364e-02
4.694312253021e-02
3.942180778030e-02
2.811703300380e-02
1.411376020234e-02
-1.244063558533e-03
-1.648248983336e-02
-3.013902920512e-02
-4.090301192719e-02
-4.774137785727e-02
-4.999782314729e-02
-4.745578820657e-02
-4.035924174497e-02
-2.938926617287e-02
-1.559869154566e-02
-3.110514804817e-04
1.500644137199e-02
2.888370927617e-02
3.998889833316e-02
4.725620153789e-02
4.998814830937e-02
4.792254338091e-02
4.125763067174e-02
3.063306706812e-02
1.706853213215e-02
1.865865596677e-03
-1.351587511874e-02
-2.760044616804e-02
-3.903609798526e-02
-4.672530780408e-02
-4.993011306968e-02
-4.834293649684e-02
-4.211610542559e-02
-3.184723239013e-02
-1.852185998314e-02
-3.418874604802e-03
1.201223310307e-02
2.629048135739e-02
3.804553265814e-02
4.614921026229e-02
4.982377357369e-02
4.871656085036e-02
4.293383548598e-02
3.303058751001e-02
1.995726909497e-02
4.968576065937e-03
-1.049697000442e-02
-2.495508215310e-02
-3.701816066171e-02
-4.552846625078e-02
-4.966923269818e-02
-4.904305498331e-02
-4.371002975032e-02
-3.418198760581e-02
-2.137337079927e-02
-6.513470741006e-03
8.971551744930e-03
2.359554047025e-02
3.595497591399e-02
4.486367630049e-02
4.946663995178e-02
4.932210303308e-02
4.444393729927e-02
3.530031877008e-02
2.276879510634e-02
8.052064041199e-03
-7.437454071183e-03
-2.221317158024e-02
-3.485700697963e-02
-4.415548355406e-02
-4.921619133027e-02
-4.955343503815e-02
-4.513484812327e-02
-3.638449908748e-02
-2.414219203060e-02
-9.582867473887e-03
5.896161126574e-03
2.080931283836e-02
3.372531607478e-02
4.340457314360e-02
4.891812912701e-02
4.973682719932e-02
4.578209380937e-02
3.743347968148e-02
2.549223289655e-02
1.110440008265e-02
6.123233995737e-17
</dep>
<dep tran.i(pr3) time>
0.000000000000e+00
-5.959909616183e-07
-1.180669605199e-06
-2.327802637431e-06
-4.493609162455e-06
-8.356277895315e-06
-1.451086457775e-05
-2.232879217449e-05
-2.817538190640e-05
-2.664112637217e-05
-2.040904641109e-05
-1.218219650516e-05
-2.785568553373e-06
6.878411159920e-06
1.588224390480e-05
2.336179762202e-05
2.859923124311e-05
3.109188845003e-05
3.060053950083e-05
2.717234101297e-05
2.113631016430e-05
1.307174766985e-05
3.752640100700e-06
-5.926622535260e-06
-1.503708478592e-05
-2.270438112392e-05
-2.819265211409e-05
-3.097516762721e-05
-3.078487912314e-05
-2.764004930948e-05
-2.184249940044e-05
-1.394864219310e-05
-4.716081026341e-06
4.969100277594e-06
1.417737822963e-05
2.202499955950e-05
2.775879836041e-05
3.082848027029e-05
3.093943630355e-05
2.808101758992e-05
2.252755738684e-05
1.481204227890e-05
5.674959439049e-06
-4.006770726709e-06
-1.330395594809e-05
-2.132431018786e-05
-2.729808970839e-05
-3.065196829009e-05
-3.106406151766e-05
-2.849481924508e-05
-2.319082137279e-05
-1.566111264176e-05
-6.628347684033e-06
3.040564876176e-06
1.241766292267e-05
2.060299088207e-05
2.681097186478e-05
3.044580245089e-05
3.115863419840e-05
2.888105394782e-05
2.383164969196e-05
1.649503185930e-05
7.575323417894e-06
-2.071417469601e-06
-1.151935658631e-05
-1.986173947335e-05
-2.629791608557e-05
-3.021018220523e-05
-3.122306285261e-05
-2.923934804023e-05
-2.444942238307e-05
-1.731299316690e-05
-8.514970500927e-06
1.100266096417e-06
1.060990599415e-05
1.910127307602e-05
2.575941872010e-05
2.994533550093e-05
3.125728514962e-05
2.956935489524e-05
2.504354178979e-05
1.811420523829e-05
9.446379883473e-06
-1.280502847011e-07
-9.690190982632e-06
-1.832232739367e-05
-2.519600073081e-05
-2.965151856058e-05
-3.126126798149e-05
-2.987075525188e-05
-2.561343313876e-05
-1.889789295093e-05
-1.036865048528e-05
-8.442894076370e-07
8.761101318431e-06
1.752565600745e-05
2.460820718935e-05
2.932901563368e-05
3.123500749509e-05
3.014325752420e-05
2.615854509585e-05
1.966329813608e-05
1.128089006734e-05
1.815812302873e-06
-7.823535837568e-06
-1.671202964700e-05
-2.399660674909e-05
-2.897813872158e-05
-3.076420942183e-05
</dep>
<dep tran.v(bias) time>
1.650000000000e+00
1.652979954808e+00
1.655903348026e+00
1.661639013187e+00
1.672468045812e+00
1.691781389477e+00
1.722554322889e+00
1.761643960872e+00
1.790876909532e+00
1.783205631861e+00
1.752045232055e+00
1.710910982526e+00
1.663927842767e+00
1.615607944200e+00
1.570588780476e+00
1.533191011890e+00
1.507003843784e+00
1.494540557750e+00
1.496997302496e+00
1.514138294935e+00
1.544318449179e+00
1.584641261651e+00
1.631236799496e+00
1.679633112676e+00
1.725185423930e+00
1.763521905620e+00
1.790963260570e+00
1.804875838136e+00
1.803924395616e+00
1.788200246547e+00
1.759212497002e+00
1.719743210965e+00
1.673580405132e+00
1.625154498612e+00
1.579113108852e+00
1.539875002202e+00
1.511206008198e+00
1.495857598649e+00
1.495302818482e+00
1.509594912050e+00
1.537362213066e+00
1.575939788605e+00
1.621625202805e+00
1.670033853634e+00
1.716519779740e+00
1.756621550939e+00
1.786490448542e+00
1.803259841450e+00
1.805320307588e+00
1.792474096225e+00
1.765954106864e+00
1.728305563209e+00
1.683141738420e+00
1.634797175619e+00
1.587911685387e+00
1.546985045590e+00
1.515945140676e+00
1.497770987746e+00
1.494206829008e+00
1.505594730261e+00
1.530841751540e+00
1.567524840704e+00
1.612123382911e+00
1.660357087348e+00
1.707596782932e+00
1.749308697367e+00
1.781489580428e+00
1.801050911026e+00
1.806115314263e+00
1.796196740201e+00
1.772247111915e+00
1.736564965835e+00
1.692574852505e+00
1.644498669518e+00
1.596950470029e+00
1.554493634620e+00
1.521202906400e+00
1.500273322495e+00
1.493713574252e+00
1.502153225524e+00
1.524782291051e+00
1.559428973809e+00
1.602768100583e+00
1.650640251424e+00
1.698450954913e+00
1.741611636968e+00
1.775980003654e+00
1.798257592803e+00
1.806306339907e+00
1.799353776259e+00
1.778067165694e+00
1.744489464755e+00
1.701843252426e+00
1.654221447038e+00
1.606194493408e+00
1.562371719963e+00
1.526958964053e+00
1.503354921832e+00
1.493824962525e+00
1.499283712379e+00
1.519207274521e+00
1.551683509320e+00
1.593595549663e+00
1.640920938486e+00
1.689117679188e+00
1.733560148235e+00
1.769983033745e+00
1.794890693608e+00
1.803821047109e+00
</dep>
<dep tran.v(in) time>
1.650000000000e+00
1.649881391898e+00
1.649706026054e+00
1.649243939265e+00
1.647676584012e+00
1.642201253009e+00
1.623473206424e+00
1.564331561967e+00
1.403733679783e+00
1.132518255186e+00
9.002198180697e-01
7.396997179596e-01
6.665415346713e-01
6.877695295020e-01
8.013464218711e-01
9.963718086011e-01
1.254128365555e+00
1.549878220861e+00
1.855237142074e+00
2.140898678345e+00
2.379446811370e+00
2.547987174388e+00
2.630344311167e+00
2.618614095731e+00
2.513922321231e+00
2.326316653318e+00
2.073802317659e+00
1.780614070318e+00
1.474890296531e+00
1.185972463431e+00
9.415891084464e-01
7.651946266640e-01
6.737182638065e-01
6.759393524750e-01
7.716447263878e-01
9.516491787540e-01
1.198677001318e+00
1.489019999433e+00
1.794812857196e+00
2.086707477222e+00
2.336689628581e+00
2.520767578518e+00
2.621274669803e+00
2.628564856666e+00
2.541938472294e+00
2.369709378506e+00
2.128407052979e+00
1.841190192750e+00
1.535624086444e+00
1.241035069250e+00
9.856959635862e-01
7.941126293799e-01
6.846720439802e-01
6.678776343848e-01
7.453412236164e-01
9.096283379694e-01
1.144971721576e+00
1.428784579600e+00
1.733828318385e+00
2.030826736330e+00
2.291275771709e+00
2.490179145312e+00
2.608447347916e+00
2.634729732705e+00
2.566503879783e+00
2.410317682356e+00
2.181160920649e+00
1.901026635989e+00
1.596800375432e+00
1.297679884100e+00
1.032372887129e+00
8.263419006823e-01
6.993604979511e-01
6.636155645298e-01
7.225376769030e-01
8.704718570421e-01
1.093220302040e+00
1.369405000965e+00
1.672519463447e+00
1.973472647831e+00
2.243380938495e+00
2.456340215714e+00
2.591911972021e+00
2.637084873091e+00
2.587523504718e+00
2.447984458918e+00
2.231859825796e+00
1.959891903998e+00
1.658182483843e+00
1.355687759760e+00
1.081439294764e+00
8.617577515324e-01
7.177267988307e-01
6.631696320632e-01
7.033223089161e-01
8.343312250930e-01
1.043622959298e+00
1.311110992041e+00
1.611123484906e+00
1.914867103996e+00
2.193190425114e+00
2.419381706229e+00
2.571732514402e+00
2.635621166226e+00
2.604916026092e+00
2.482563982457e+00
2.280307623812e+00
2.017558258035e+00
1.804436331298e+00
</dep>
<dep tran.v(out) time>
1.650000000000e+00
1.649940990994e+00
1.649824093015e+00
1.649476719529e+00
1.648125944929e+00
1.643036880798e+00
1.624924292882e+00
1.566564441185e+00
1.406551217974e+00
1.135182367824e+00
9.022607227109e-01
7.409179376101e-01
6.668200915266e-01
6.870816883860e-01
7.997581974806e-01
9.940356288389e-01
1.251268442431e+00
1.546769032016e+00
1.852177088124e+00
2.138181444244e+00
2.377333180353e+00
2.546679999621e+00
2.629969047157e+00
2.619206757985e+00
2.515426029710e+00
2.328587091431e+00
2.076621582871e+00
1.783711587081e+00
1.477968784443e+00
1.188736468362e+00
9.437733583865e-01
7.665894908833e-01
6.741898719091e-01
6.754424424473e-01
7.702269885648e-01
9.494466787980e-01
1.195901121482e+00
1.485937151406e+00
1.791718913566e+00
2.083899375463e+00
2.334436872843e+00
2.519286374290e+00
2.620707173859e+00
2.628965533739e+00
2.543268867889e+00
2.371841809524e+00
2.131136861950e+00
1.844255389579e+00
1.538730492596e+00
1.243884551174e+00
9.880150457235e-01
7.956787406441e-01
6.853348787486e-01
6.675735778972e-01
7.440994573241e-01
9.075680388812e-01
1.142290624390e+00
1.425739999355e+00
1.730712454966e+00
2.027938630935e+00
2.288892606740e+00
2.488529642126e+00
2.607689815574e+00
2.634936874452e+00
2.567655815442e+00
2.412303856304e+00
2.183790712258e+00
1.904047654209e+00
1.599922681717e+00
1.300603818904e+00
1.034817829367e+00
8.280731999990e-01
7.002119950012e-01
6.635055379201e-01
7.214766863036e-01
8.685617297345e-01
1.090644360168e+00
1.366410467415e+00
1.669393734933e+00
1.970515712341e+00
2.240876584316e+00
2.454528795190e+00
2.590967334032e+00
2.637097678119e+00
2.588492523817e+00
2.449816691657e+00
2.234379425869e+00
1.962857055854e+00
1.661308610642e+00
1.358674835285e+00
1.084000638078e+00
8.636475408275e-01
7.187636638792e-01
6.632540610040e-01
7.024461987843e-01
8.325786594922e-01
1.041162138579e+00
1.308178090478e+00
1.607999984157e+00
1.911852778243e+00
2.190574570605e+00
2.417415376415e+00
2.570604425395e+00
2.635439584996e+00
2.605698379676e+00
2.484235185422e+00
2.282707284486e+00
2.020456071908e+00
1.807512752240e+00
</dep>
