<Qucs Dataset 0.0.22>
<indep time 109>
0.000000000000e+00
9.900990000000e-06
1.980198000000e-05
3.960396000000e-05
7.920792000000e-05
1.584158400000e-04
3.168316800000e-04
6.336633600000e-04
1.267326720000e-03
2.257425720000e-03
3.247524720000e-03
4.237623720000e-03
5.227722720000e-03
6.217821720000e-03
7.207920720000e-03
8.198019720000e-03
9.188118720000e-03
1.017821772000e-02
1.116831672000e-02
1.215841572000e-02
1.314851472000e-02
1.413861372000e-02
1.512871272000e-02
1.611881172000e-02
1.710891072000e-02
1.809900972000e-02
1.908910872000e-02
2.007920772000e-02
2.106930672000e-02
2.205940572000e-02
2.304950472000e-02
2.403960372000e-02
2.502970272000e-02
2.601980172000e-02
2.700990072000e-02
2.799999972000e-02
2.899009872000e-02
2.998019772000e-02
3.097029672000e-02
3.196039572000e-02
3.295049472000e-02
3.394059372000e-02
3.493069272000e-02
3.592079172000e-02
3.691089072000e-02
3.790098972000e-02
3.889108872000e-02
3.988118772000e-02
4.087128672000e-02
4.186138572000e-02
4.285148472000e-02
4.384158372000e-02
4.483168272000e-02
4.582178172000e-02
4.681188072000e-02
4.780197972000e-02
4.879207872000e-02
4.978217772000e-02
5.077227672000e-02
5.176237572000e-02
5.275247472000e-02
5.374257372000e-02
5.473267272000e-02
5.572277172000e-02
5.671287072000e-02
5.770296972000e-02
5.869306872000e-02
5.968316772000e-02
6.067326672000e-02
6.166336572000e-02
6.265346472000e-02
6.364356372000e-02
6.463366272000e-02
6.562376172000e-02
6.661386072000e-02
6.760395972000e-02
6.859405872000e-02
6.958415772000e-02
7.057425672000e-02
7.156435572000e-02
7.255445472000e-02
7.354455372000e-02
7.453465272000e-02
7.552475172000e-02
7.651485072000e-02
7.750494972000e-02
7.849504872000e-02
7.948514772000e-02
8.047524672000e-02
8.146534572000e-02
8.245544472000e-02
8.344554372000e-02
8.443564272000e-02
8.542574172000e-02
8.641584072000e-02
8.740593972000e-02
8.839603872000e-02
8.938613772000e-02
9.037623672000e-02
9.136633572000e-02
9.235643472000e-02
9.334653372000e-02
9.433663272000e-02
9.532673172000e-02
9.631683072000e-02
9.730692972000e-02
9.829702872000e-02
9.928712772000e-02
1.000000000000e-01
</indep>
<dep tran.i(pr1) time>
1.650000000000e-04
1.646723305388e-04
1.643508780879e-04
1.637201872622e-04
1.625294058520e-04
1.604055801753e-04
1.570212915961e-04
1.527216426842e-04
1.495048997570e-04
1.503472360954e-04
1.537743414204e-04
1.582988818515e-04
1.634668956101e-04
1.687820530144e-04
1.737342325823e-04
1.778481548091e-04
1.807289910139e-04
1.821002564479e-04
1.818303455798e-04
1.799451627767e-04
1.766256361639e-04
1.721903532683e-04
1.670649849682e-04
1.617414322488e-04
1.567306166038e-04
1.525134449666e-04
1.494946552530e-04
1.479639721320e-04
1.480683010533e-04
1.497976291756e-04
1.529859863369e-04
1.573273738389e-04
1.624051322994e-04
1.677319300295e-04
1.727965340998e-04
1.771128752979e-04
1.802666980304e-04
1.819553179984e-04
1.820166719557e-04
1.804448715308e-04
1.773907683567e-04
1.731474762687e-04
1.681222400611e-04
1.627973506632e-04
1.576838578549e-04
1.532725228855e-04
1.499867182601e-04
1.481417950791e-04
1.479148175994e-04
1.493275697084e-04
1.522444642418e-04
1.563855557965e-04
1.613534081501e-04
1.666712377188e-04
1.718286722812e-04
1.763307333317e-04
1.797453410398e-04
1.817447825863e-04
1.821371640020e-04
1.808848269579e-04
1.781079629780e-04
1.740730782032e-04
1.691674157895e-04
1.638617907170e-04
1.586654038953e-04
1.540769722258e-04
1.505368648539e-04
1.483848392764e-04
1.478274335292e-04
1.489181439506e-04
1.515522909352e-04
1.554770654319e-04
1.603157919846e-04
1.656040797010e-04
1.708343916033e-04
1.755047548717e-04
1.791669370753e-04
1.814694647338e-04
1.821913555573e-04
1.812633269526e-04
1.787744453356e-04
1.749635780905e-04
1.701964685636e-04
1.649306342902e-04
1.596714573065e-04
1.549236807230e-04
1.511429666196e-04
1.486921644313e-04
1.478064869156e-04
1.485709358941e-04
1.509121443066e-04
1.546054175247e-04
1.592962981460e-04
1.645345846115e-04
1.698175387526e-04
1.746381354746e-04
1.785337238738e-04
1.811304295943e-04
1.821790369648e-04
1.815789071689e-04
1.793876369335e-04
1.758155307527e-04
1.712054171701e-04
1.659997462264e-04
1.606981258553e-04
1.558093726200e-04
1.518026786627e-04
1.490625815601e-04
1.480800110325e-04
</dep>
<dep tran.i(pr2) time>
0.000000000000e+00
-1.555241364499e-04
-3.110467681842e-04
-6.220814987305e-04
-1.244066699153e-03
-2.487363101286e-03
-4.968566687808e-03
-9.887948737432e-03
-1.938533686933e-02
-3.256100996010e-02
-4.261167974570e-02
-4.857274542482e-02
-4.987210097333e-02
-4.638504232376e-02
-3.844623568634e-02
-2.681759836682e-02
-1.261517468024e-02
2.797975043995e-03
1.794259251843e-02
3.136519151150e-02
4.177755441973e-02
4.818036738453e-02
4.995912822364e-02
4.694312253021e-02
3.942180778030e-02
2.811703300380e-02
1.411376020234e-02
-1.244063558533e-03
-1.648248983336e-02
-3.013902920512e-02
-4.090301192719e-02
-4.774137785727e-02
-4.999782314729e-02
-4.745578820657e-02
-4.035924174497e-02
-2.938926617287e-02
-1.559869154566e-02
-3.110514804817e-04
1.500644137199e-02
2.888370927617e-02
3.998889833316e-02
4.725620153789e-02
4.998814830937e-02
4.792254338091e-02
4.125763067174e-02
3.063306706812e-02
1.706853213215e-02
1.865865596677e-03
-1.351587511874e-02
-2.760044616804e-02
-3.903609798526e-02
-4.672530780408e-02
-4.993011306968e-02
-4.834293649684e-02
-4.211610542559e-02
-3.184723239013e-02
-1.852185998314e-02
-3.418874604802e-03
1.201223310307e-02
2.629048135739e-02
3.804553265814e-02
4.614921026229e-02
4.982377357369e-02
4.871656085036e-02
4.293383548598e-02
3.303058751001e-02
1.995726909497e-02
4.968576065937e-03
-1.049697000442e-02
-2.495508215310e-02
-3.701816066171e-02
-4.552846625078e-02
-4.966923269818e-02
-4.904305498331e-02
-4.371002975032e-02
-3.418198760581e-02
-2.137337079927e-02
-6.513470741006e-03
8.971551744930e-03
2.359554047025e-02
3.595497591399e-02
4.486367630049e-02
4.946663995178e-02
4.932210303308e-02
4.444393729927e-02
3.530031877008e-02
2.276879510634e-02
8.052064041199e-03
-7.437454071183e-03
-2.221317158024e-02
-3.485700697963e-02
-4.415548355406e-02
-4.921619133027e-02
-4.955343503815e-02
-4.513484812327e-02
-3.638449908748e-02
-2.414219203060e-02
-9.582867473887e-03
5.896161126574e-03
2.080931283836e-02
3.372531607478e-02
4.340457314360e-02
4.891812912701e-02
4.973682719932e-02
4.578209380937e-02
3.743347968148e-02
2.549223289655e-02
1.110440008265e-02
6.123233995737e-17
</dep>
<dep tran.i(pr3) time>
-5.421010862428e-20
-6.553389224372e-07
-1.298243824222e-06
-2.559625475614e-06
-4.941188296074e-06
-9.188839649339e-06
-1.595741680785e-05
-2.455671463159e-05
-3.099020048602e-05
-2.930552780926e-05
-2.245131715927e-05
-1.340223629697e-05
-3.066208779803e-06
7.564106028735e-06
1.746846516456e-05
2.569630961818e-05
3.145798202787e-05
3.420051289584e-05
3.366069115962e-05
2.989032555338e-05
2.325127232777e-05
1.438070653659e-05
4.129969936435e-06
-6.517135502322e-06
-1.653876679239e-05
-2.497311006674e-05
-3.101068949394e-05
-3.407205573602e-05
-3.386339789349e-05
-3.040474164886e-05
-2.402802732611e-05
-1.534525232212e-05
-5.189735401213e-06
5.463860059077e-06
1.559306819955e-05
2.422575059585e-05
3.053339606072e-05
3.391063599686e-05
3.403334391142e-05
3.088974306161e-05
2.478153671334e-05
1.629495253739e-05
6.244480122110e-06
-4.405298673542e-06
-1.463228429012e-05
-2.345495422899e-05
-3.002656347970e-05
-3.371640984186e-05
-3.417036480128e-05
-3.134486058319e-05
-2.551107151636e-05
-1.722888840695e-05
-7.293183699713e-06
3.342475437525e-06
1.365734456234e-05
2.266146666335e-05
2.949068207966e-05
3.348956517263e-05
3.427432800393e-05
3.176965391587e-05
2.621592595593e-05
1.814615640635e-05
8.334831578992e-06
-2.276418565937e-06
-1.266919220933e-05
-2.184605554844e-05
-2.892627029228e-05
-3.323032144720e-05
-3.434513294152e-05
-3.216371209875e-05
-2.689541812955e-05
-1.904586913628e-05
-9.368416030894e-06
1.208159401983e-06
1.166878320655e-05
2.100950974342e-05
2.833387415059e-05
3.293892946762e-05
3.438271111467e-05
3.252665390519e-05
2.754889067110e-05
1.992715618102e-05
1.039293712720e-05
-1.387314195131e-07
-1.065708538707e-05
-2.015263855395e-05
-2.771406676077e-05
-3.261567113739e-05
-3.438702616887e-05
-3.285812821176e-05
-2.817571138686e-05
-2.078916495059e-05
-1.140740370796e-05
-9.308307769208e-07
9.635077505136e-06
1.927627094923e-05
2.706744774761e-05
3.226085918867e-05
3.435807392957e-05
3.315781433781e-05
2.877527386703e-05
2.163106150548e-05
1.241083434029e-05
1.999492452886e-06
-8.603748289354e-06
-1.838125476002e-05
-2.639464267453e-05
-3.187483687981e-05
-3.383997793495e-05
</dep>
<dep tran.v(bias) time>
1.650000000000e+00
1.653276694612e+00
1.656491219121e+00
1.662798127378e+00
1.674705941480e+00
1.695944198247e+00
1.729787084039e+00
1.772783573158e+00
1.804951002430e+00
1.796527639046e+00
1.762256585796e+00
1.717011181485e+00
1.665331043899e+00
1.612179469856e+00
1.562657674177e+00
1.521518451909e+00
1.492710089861e+00
1.478997435521e+00
1.481696544202e+00
1.500548372233e+00
1.533743638361e+00
1.578096467317e+00
1.629350150318e+00
1.682585677512e+00
1.732693833962e+00
1.774865550334e+00
1.805053447470e+00
1.820360278680e+00
1.819316989467e+00
1.802023708244e+00
1.770140136631e+00
1.726726261611e+00
1.675948677006e+00
1.622680699705e+00
1.572034659002e+00
1.528871247021e+00
1.497333019696e+00
1.480446820016e+00
1.479833280443e+00
1.495551284692e+00
1.526092316433e+00
1.568525237313e+00
1.618777599389e+00
1.672026493368e+00
1.723161421451e+00
1.767274771145e+00
1.800132817399e+00
1.818582049209e+00
1.820851824006e+00
1.806724302916e+00
1.777555357582e+00
1.736144442035e+00
1.686465918499e+00
1.633287622812e+00
1.581713277188e+00
1.536692666683e+00
1.502546589602e+00
1.482552174137e+00
1.478628359980e+00
1.491151730421e+00
1.518920370220e+00
1.559269217968e+00
1.608325842105e+00
1.661382092830e+00
1.713345961047e+00
1.759230277742e+00
1.794631351461e+00
1.816151607236e+00
1.821725664708e+00
1.810818560494e+00
1.784477090648e+00
1.745229345681e+00
1.696842080154e+00
1.643959202990e+00
1.591656083967e+00
1.544952451283e+00
1.508330629247e+00
1.485305352662e+00
1.478086444427e+00
1.487366730474e+00
1.512255546644e+00
1.550364219095e+00
1.598035314364e+00
1.650693657098e+00
1.703285426935e+00
1.750763192770e+00
1.788570333804e+00
1.813078355687e+00
1.821935130844e+00
1.814290641059e+00
1.790878556934e+00
1.753945824753e+00
1.707037018540e+00
1.654654153885e+00
1.601824612474e+00
1.553618645254e+00
1.514662761262e+00
1.488695704057e+00
1.478209630352e+00
1.484210928311e+00
1.506123630665e+00
1.541844692473e+00
1.587945828299e+00
1.640002537736e+00
1.693018741447e+00
1.741906273800e+00
1.781973213373e+00
1.809374184399e+00
1.819199889675e+00
</dep>
<dep tran.v(in) time>
1.650000000000e+00
1.649869581067e+00
1.649676751585e+00
1.649168646166e+00
1.647445180242e+00
1.641424364491e+00
1.620829680077e+00
1.555788948656e+00
1.379155375716e+00
1.080830141536e+00
8.252935603685e-01
6.487056313375e-01
5.682122790788e-01
5.915421284010e-01
7.164561828441e-01
9.309659690275e-01
1.214484171291e+00
1.539800475205e+00
1.875693044402e+00
2.189924998324e+00
2.452338307604e+00
2.637748174233e+00
2.728360111899e+00
2.715477750157e+00
2.600337457998e+00
2.393989684839e+00
2.116238407090e+00
1.793740465619e+00
1.457447207887e+00
1.139633970048e+00
8.708024908336e-01
6.767535443018e-01
5.761107419446e-01
5.785331542387e-01
6.837882931124e-01
8.817744247046e-01
1.153490070979e+00
1.472857653453e+00
1.809226257061e+00
2.130313314420e+00
2.405302885955e+00
2.607803182191e+00
2.718379483633e+00
2.726419364319e+00
2.631151206483e+00
2.441718255637e+00
2.176301108702e+00
1.860372853353e+00
1.524254319420e+00
1.200204074152e+00
9.193224454795e-01
7.085667058899e-01
5.881638810069e-01
5.696694854222e-01
6.548584962450e-01
8.355550018338e-01
1.094416874967e+00
1.406600162397e+00
1.742143453032e+00
2.068843387897e+00
2.355345338328e+00
2.574152628298e+00
2.704265494431e+00
2.733196512746e+00
2.658169063967e+00
2.486383816184e+00
2.234327649497e+00
1.926191347758e+00
1.591547917535e+00
1.262514354792e+00
9.706692552890e-01
7.440220972853e-01
6.043250659472e-01
5.649854138504e-01
6.297787162297e-01
7.924865147407e-01
1.037493126432e+00
1.341284339911e+00
1.674704163171e+00
2.005753034434e+00
2.302658941158e+00
2.536926700270e+00
2.686072748686e+00
2.735782975917e+00
2.681286503398e+00
2.527813563760e+00
2.290093535612e+00
1.990941309358e+00
1.659067655854e+00
1.326323745114e+00
1.024644269033e+00
7.829825481925e-01
6.245317721554e-01
5.644990613223e-01
6.086459820573e-01
7.527355873684e-01
9.829390527383e-01
1.277162880729e+00
1.607169297510e+00
1.941286338839e+00
2.247447528285e+00
2.496269418279e+00
2.663871630737e+00
2.734168747287e+00
2.700414087715e+00
2.565847214397e+00
2.343383019236e+00
2.054372232629e+00
1.819944369189e+00
</dep>
<dep tran.v(out) time>
1.650000000000e+00
1.649935114959e+00
1.649806575968e+00
1.649424608714e+00
1.647939299071e+00
1.642343248456e+00
1.622425421758e+00
1.558244620120e+00
1.382254395764e+00
1.083760694317e+00
8.275386920844e-01
6.500458549671e-01
5.685188999568e-01
5.907857177981e-01
7.147093363277e-01
9.283963380657e-01
1.211338373088e+00
1.536380423915e+00
1.872326975286e+00
2.186935965769e+00
2.450013180371e+00
2.636310103579e+00
2.727947114906e+00
2.716129463708e+00
2.601991334677e+00
2.396486995845e+00
2.119339476039e+00
1.797147671192e+00
1.460833547677e+00
1.142674444213e+00
8.732052935662e-01
6.782880695340e-01
5.766297154847e-01
5.779867682328e-01
6.822289862925e-01
8.793518496450e-01
1.150436731373e+00
1.469466589853e+00
1.805822922670e+00
2.127224340114e+00
2.402824732284e+00
2.606173686937e+00
2.717755035621e+00
2.726859894186e+00
2.632614434912e+00
2.444063751060e+00
2.179303765050e+00
1.863744494337e+00
1.527671355900e+00
1.203338560210e+00
9.218735526311e-01
7.102895947306e-01
5.888931993769e-01
5.693352378785e-01
6.534927617887e-01
8.332888551674e-01
1.091467806759e+00
1.403251205880e+00
1.738716020231e+00
2.065666422505e+00
2.352723745733e+00
2.572338012657e+00
2.703432011273e+00
2.733424154603e+00
2.659435983188e+00
2.488568421739e+00
2.237220276526e+00
1.929514379903e+00
1.594982430829e+00
1.265730726002e+00
9.733587971020e-01
7.459266841989e-01
6.052619075503e-01
5.648645979102e-01
6.286118379090e-01
7.903855637664e-01
1.034659739017e+00
1.337990446965e+00
1.671265892059e+00
2.002500369043e+00
2.299904052090e+00
2.534933984652e+00
2.685033454974e+00
2.735796849058e+00
2.682352211937e+00
2.529828827615e+00
2.292864942288e+00
1.994202876472e+00
1.662506358471e+00
1.329609557935e+00
1.027461840172e+00
7.850614646875e-01
6.256725125262e-01
5.645921444000e-01
6.076824743068e-01
7.508079602734e-01
9.802323079636e-01
1.273936794810e+00
1.603733490117e+00
1.937970557406e+00
2.244570000898e+00
2.494106312128e+00
2.662630547303e+00
2.733968798041e+00
2.701274462544e+00
2.567685339873e+00
2.346022483503e+00
2.057559716317e+00
1.823328366983e+00
</dep>
